Title: ** sch_path: /workspaces/usm-vlsi-tools/shared_xserver/parametros_psp/vth_test.sch
Date: Wed Jul  2 05:37:57  2025
Plotname: DC transfer characteristic
Flags: real
No. Variables: 46
No. Points: 301
Variables:
	0	v(v-sweep)	voltage
	1	gmn	notype dims=1
	2	idn	notype dims=1
	3	v(n.xm1.nsg13_lv_nmos#bd)	voltage
	4	v(n.xm1.nsg13_lv_nmos#bi)	voltage
	5	v(n.xm1.nsg13_lv_nmos#bp)	voltage
	6	v(n.xm1.nsg13_lv_nmos#bs)	voltage
	7	v(n.xm1.nsg13_lv_nmos#di)	voltage
	8	v(n.xm1.nsg13_lv_nmos#gp)	voltage
	9	v(n.xm1.nsg13_lv_nmos#int1)	voltage
	10	v(n.xm1.nsg13_lv_nmos#int2)	voltage
	11	v(n.xm1.nsg13_lv_nmos#int3)	voltage
	12	v(n.xm1.nsg13_lv_nmos#int4)	voltage
	13	v(n.xm1.nsg13_lv_nmos#int5)	voltage
	14	v(n.xm1.nsg13_lv_nmos#int6)	voltage
	15	v(n.xm1.nsg13_lv_nmos#int7)	voltage
	16	v(n.xm1.nsg13_lv_nmos#int8)	voltage
	17	v(n.xm1.nsg13_lv_nmos#int9)	voltage
	18	v(n.xm1.nsg13_lv_nmos#noi)	voltage
	19	v(n.xm1.nsg13_lv_nmos#si)	voltage
	20	v(n.xm1.nsg13_lv_nmos#flow(noii))	voltage
	21	v(n.xm1.nsg13_lv_nmos#flow(res1))	voltage
	22	v(n.xm1.nsg13_lv_nmos#flow(res2))	voltage
	23	v(n.xm1.nsg13_lv_nmos#flow(res3))	voltage
	24	v(n.xm1.nsg13_lv_nmos#flow(res4))	voltage
	25	v(n.xm1.nsg13_lv_nmos#flow(res5))	voltage
	26	v(n.xm1.nsg13_lv_nmos#flow(res6))	voltage
	27	v(n.xm1.nsg13_lv_nmos#flow(res7))	voltage
	28	v(n.xm1.nsg13_lv_nmos#flow(res8))	voltage
	29	v(n.xm1.nsg13_lv_nmos#flow(res9))	voltage
	30	v(n.xm1.nsg13_lv_nmos#flow(spline1))	voltage
	31	v(n.xm1.nsg13_lv_nmos#flow(spline2))	voltage
	32	v(n.xm1.nsg13_lv_nmos#flow(spline3))	voltage
	33	v(n.xm1.nsg13_lv_nmos#flow(spline4))	voltage
	34	v(n.xm1.nsg13_lv_nmos#flow(spline5))	voltage
	35	v(n.xm1.nsg13_lv_nmos#flow(spline6))	voltage
	36	v(n.xm1.nsg13_lv_nmos#flow(spline7))	voltage
	37	v(n.xm1.nsg13_lv_nmos#flow(spline8))	voltage
	38	v(n.xm1.nsg13_lv_nmos#flow(spline9))	voltage
	39	v(n.xm1.nsg13_lv_nmos#implicit_equation_0)	voltage
	40	v(n.xm1.nsg13_lv_nmos#implicit_equation_1)	voltage
	41	v(n.xm1.nsg13_lv_nmos#implicit_equation_2)	voltage
	42	i(v1)	current
	43	i(v2)	current
	44	v(vd)	voltage
	45	v(vg)	voltage
Values:
 0	0.000000000000000e+00
	3.616808517741843e-06
	1.385815197921181e-04
	-0.000000000000000e+00
	-0.000000000000000e+00
	-0.000000000000000e+00
	-0.000000000000000e+00
	-0.000000000000000e+00
	7.822637844390669e-15
	-0.000000000000000e+00
	-0.000000000000000e+00
	-0.000000000000000e+00
	0.000000000000000e+00
	0.000000000000000e+00
	0.000000000000000e+00
	0.000000000000000e+00
	0.000000000000000e+00
	0.000000000000000e+00
	0.000000000000000e+00
	-0.000000000000000e+00
	0.000000000000000e+00
	0.000000000000000e+00
	0.000000000000000e+00
	0.000000000000000e+00
	0.000000000000000e+00
	0.000000000000000e+00
	0.000000000000000e+00
	-0.000000000000000e+00
	0.000000000000000e+00
	0.000000000000000e+00
	0.000000000000000e+00
	0.000000000000000e+00
	0.000000000000000e+00
	0.000000000000000e+00
	0.000000000000000e+00
	0.000000000000000e+00
	0.000000000000000e+00
	0.000000000000000e+00
	0.000000000000000e+00
	0.000000000000000e+00
	0.000000000000000e+00
	0.000000000000000e+00
	5.405277589214281e-16
	-4.885008892859887e-11
	1.290000000000000e-02
	0.000000000000000e+00

 1	1.000000000000000e-02
	0.000000000000000e+00
	0.000000000000000e+00
	-0.000000000000000e+00
	-0.000000000000000e+00
	-0.000000000000000e+00
	-0.000000000000000e+00
	-0.000000000000000e+00
	9.999999999995934e-03
	-0.000000000000000e+00
	-0.000000000000000e+00
	-0.000000000000000e+00
	0.000000000000000e+00
	0.000000000000000e+00
	0.000000000000000e+00
	0.000000000000000e+00
	0.000000000000000e+00
	0.000000000000000e+00
	0.000000000000000e+00
	-0.000000000000000e+00
	0.000000000000000e+00
	0.000000000000000e+00
	0.000000000000000e+00
	0.000000000000000e+00
	0.000000000000000e+00
	0.000000000000000e+00
	0.000000000000000e+00
	-0.000000000000000e+00
	0.000000000000000e+00
	0.000000000000000e+00
	0.000000000000000e+00
	0.000000000000000e+00
	0.000000000000000e+00
	0.000000000000000e+00
	0.000000000000000e+00
	0.000000000000000e+00
	0.000000000000000e+00
	0.000000000000000e+00
	0.000000000000000e+00
	0.000000000000000e+00
	0.000000000000000e+00
	0.000000000000000e+00
	-2.809167828909942e-16
	-6.480915100875055e-11
	1.290000000000000e-02
	1.000000000000000e-02

 2	2.000000000000000e-02
	0.000000000000000e+00
	0.000000000000000e+00
	-0.000000000000000e+00
	-0.000000000000000e+00
	-0.000000000000000e+00
	-0.000000000000000e+00
	-0.000000000000000e+00
	1.999999999998417e-02
	-0.000000000000000e+00
	-0.000000000000000e+00
	-0.000000000000000e+00
	0.000000000000000e+00
	0.000000000000000e+00
	0.000000000000000e+00
	0.000000000000000e+00
	0.000000000000000e+00
	0.000000000000000e+00
	0.000000000000000e+00
	-0.000000000000000e+00
	0.000000000000000e+00
	0.000000000000000e+00
	0.000000000000000e+00
	0.000000000000000e+00
	0.000000000000000e+00
	0.000000000000000e+00
	0.000000000000000e+00
	-0.000000000000000e+00
	0.000000000000000e+00
	0.000000000000000e+00
	0.000000000000000e+00
	0.000000000000000e+00
	0.000000000000000e+00
	0.000000000000000e+00
	0.000000000000000e+00
	0.000000000000000e+00
	0.000000000000000e+00
	0.000000000000000e+00
	0.000000000000000e+00
	0.000000000000000e+00
	0.000000000000000e+00
	0.000000000000000e+00
	-1.093526311168880e-15
	-8.601206566855259e-11
	1.290000000000000e-02
	2.000000000000000e-02

 3	3.000000000000000e-02
	0.000000000000000e+00
	0.000000000000000e+00
	-0.000000000000000e+00
	-0.000000000000000e+00
	-0.000000000000000e+00
	-0.000000000000000e+00
	-0.000000000000000e+00
	2.999999999997155e-02
	-0.000000000000000e+00
	-0.000000000000000e+00
	-0.000000000000000e+00
	0.000000000000000e+00
	0.000000000000000e+00
	0.000000000000000e+00
	0.000000000000000e+00
	0.000000000000000e+00
	0.000000000000000e+00
	0.000000000000000e+00
	-0.000000000000000e+00
	0.000000000000000e+00
	0.000000000000000e+00
	0.000000000000000e+00
	0.000000000000000e+00
	0.000000000000000e+00
	0.000000000000000e+00
	0.000000000000000e+00
	-0.000000000000000e+00
	0.000000000000000e+00
	0.000000000000000e+00
	0.000000000000000e+00
	0.000000000000000e+00
	0.000000000000000e+00
	0.000000000000000e+00
	0.000000000000000e+00
	0.000000000000000e+00
	0.000000000000000e+00
	0.000000000000000e+00
	0.000000000000000e+00
	0.000000000000000e+00
	0.000000000000000e+00
	0.000000000000000e+00
	-1.965875379150717e-15
	-1.141905746136466e-10
	1.290000000000000e-02
	3.000000000000000e-02

 4	4.000000000000000e-02
	0.000000000000000e+00
	0.000000000000000e+00
	-0.000000000000000e+00
	-0.000000000000000e+00
	-0.000000000000000e+00
	-0.000000000000000e+00
	-0.000000000000000e+00
	3.999999999995803e-02
	-0.000000000000000e+00
	-0.000000000000000e+00
	-0.000000000000000e+00
	0.000000000000000e+00
	0.000000000000000e+00
	0.000000000000000e+00
	0.000000000000000e+00
	0.000000000000000e+00
	0.000000000000000e+00
	0.000000000000000e+00
	-0.000000000000000e+00
	0.000000000000000e+00
	0.000000000000000e+00
	0.000000000000000e+00
	0.000000000000000e+00
	0.000000000000000e+00
	0.000000000000000e+00
	0.000000000000000e+00
	-0.000000000000000e+00
	0.000000000000000e+00
	0.000000000000000e+00
	0.000000000000000e+00
	0.000000000000000e+00
	0.000000000000000e+00
	0.000000000000000e+00
	0.000000000000000e+00
	0.000000000000000e+00
	0.000000000000000e+00
	0.000000000000000e+00
	0.000000000000000e+00
	0.000000000000000e+00
	0.000000000000000e+00
	0.000000000000000e+00
	-2.899590290095233e-15
	-1.516510726288070e-10
	1.290000000000000e-02
	4.000000000000000e-02

 5	5.000000000000000e-02
	0.000000000000000e+00
	0.000000000000000e+00
	-0.000000000000000e+00
	-0.000000000000000e+00
	-0.000000000000000e+00
	-0.000000000000000e+00
	-0.000000000000000e+00
	4.999999999994367e-02
	-0.000000000000000e+00
	-0.000000000000000e+00
	-0.000000000000000e+00
	0.000000000000000e+00
	0.000000000000000e+00
	0.000000000000000e+00
	0.000000000000000e+00
	0.000000000000000e+00
	0.000000000000000e+00
	0.000000000000000e+00
	-0.000000000000000e+00
	0.000000000000000e+00
	0.000000000000000e+00
	0.000000000000000e+00
	0.000000000000000e+00
	0.000000000000000e+00
	0.000000000000000e+00
	0.000000000000000e+00
	-0.000000000000000e+00
	0.000000000000000e+00
	0.000000000000000e+00
	0.000000000000000e+00
	0.000000000000000e+00
	0.000000000000000e+00
	0.000000000000000e+00
	0.000000000000000e+00
	0.000000000000000e+00
	0.000000000000000e+00
	0.000000000000000e+00
	0.000000000000000e+00
	0.000000000000000e+00
	0.000000000000000e+00
	0.000000000000000e+00
	-3.892285799222961e-15
	-2.014659608420893e-10
	1.290000000000000e-02
	5.000000000000000e-02

 6	6.000000000000000e-02
	0.000000000000000e+00
	0.000000000000000e+00
	-0.000000000000000e+00
	-0.000000000000000e+00
	-0.000000000000000e+00
	-0.000000000000000e+00
	-0.000000000000000e+00
	5.999999999992853e-02
	-0.000000000000000e+00
	-0.000000000000000e+00
	-0.000000000000000e+00
	0.000000000000000e+00
	0.000000000000000e+00
	0.000000000000000e+00
	0.000000000000000e+00
	0.000000000000000e+00
	0.000000000000000e+00
	0.000000000000000e+00
	-0.000000000000000e+00
	0.000000000000000e+00
	0.000000000000000e+00
	0.000000000000000e+00
	0.000000000000000e+00
	0.000000000000000e+00
	0.000000000000000e+00
	0.000000000000000e+00
	-0.000000000000000e+00
	0.000000000000000e+00
	0.000000000000000e+00
	0.000000000000000e+00
	0.000000000000000e+00
	0.000000000000000e+00
	0.000000000000000e+00
	0.000000000000000e+00
	0.000000000000000e+00
	0.000000000000000e+00
	0.000000000000000e+00
	0.000000000000000e+00
	0.000000000000000e+00
	0.000000000000000e+00
	0.000000000000000e+00
	-4.938757736105970e-15
	-2.677290383186699e-10
	1.290000000000000e-02
	6.000000000000000e-02

 7	7.000000000000001e-02
	0.000000000000000e+00
	0.000000000000000e+00
	-0.000000000000000e+00
	-0.000000000000000e+00
	-0.000000000000000e+00
	-0.000000000000000e+00
	-0.000000000000000e+00
	6.999999999991260e-02
	-0.000000000000000e+00
	-0.000000000000000e+00
	-0.000000000000000e+00
	0.000000000000000e+00
	0.000000000000000e+00
	0.000000000000000e+00
	0.000000000000000e+00
	0.000000000000000e+00
	0.000000000000000e+00
	0.000000000000000e+00
	-0.000000000000000e+00
	0.000000000000000e+00
	0.000000000000000e+00
	0.000000000000000e+00
	0.000000000000000e+00
	0.000000000000000e+00
	0.000000000000000e+00
	0.000000000000000e+00
	-0.000000000000000e+00
	0.000000000000000e+00
	0.000000000000000e+00
	0.000000000000000e+00
	0.000000000000000e+00
	0.000000000000000e+00
	0.000000000000000e+00
	0.000000000000000e+00
	0.000000000000000e+00
	0.000000000000000e+00
	0.000000000000000e+00
	0.000000000000000e+00
	0.000000000000000e+00
	0.000000000000000e+00
	0.000000000000000e+00
	-6.039439781613254e-15
	-3.558963136748180e-10
	1.290000000000000e-02
	7.000000000000001e-02

 8	8.000000000000000e-02
	0.000000000000000e+00
	0.000000000000000e+00
	-0.000000000000000e+00
	-0.000000000000000e+00
	-0.000000000000000e+00
	-0.000000000000000e+00
	-0.000000000000000e+00
	7.999999999989592e-02
	-0.000000000000000e+00
	-0.000000000000000e+00
	-0.000000000000000e+00
	0.000000000000000e+00
	0.000000000000000e+00
	0.000000000000000e+00
	0.000000000000000e+00
	0.000000000000000e+00
	0.000000000000000e+00
	0.000000000000000e+00
	-0.000000000000000e+00
	0.000000000000000e+00
	0.000000000000000e+00
	0.000000000000000e+00
	0.000000000000000e+00
	0.000000000000000e+00
	0.000000000000000e+00
	0.000000000000000e+00
	-0.000000000000000e+00
	0.000000000000000e+00
	0.000000000000000e+00
	0.000000000000000e+00
	0.000000000000000e+00
	0.000000000000000e+00
	0.000000000000000e+00
	0.000000000000000e+00
	0.000000000000000e+00
	0.000000000000000e+00
	0.000000000000000e+00
	0.000000000000000e+00
	0.000000000000000e+00
	0.000000000000000e+00
	0.000000000000000e+00
	-7.191296169661854e-15
	-4.732408447812243e-10
	1.290000000000000e-02
	8.000000000000000e-02

 9	9.000000000000000e-02
	0.000000000000000e+00
	0.000000000000000e+00
	-0.000000000000000e+00
	-0.000000000000000e+00
	-0.000000000000000e+00
	-0.000000000000000e+00
	-0.000000000000000e+00
	8.999999999987841e-02
	-0.000000000000000e+00
	-0.000000000000000e+00
	-0.000000000000000e+00
	0.000000000000000e+00
	0.000000000000000e+00
	0.000000000000000e+00
	0.000000000000000e+00
	0.000000000000000e+00
	0.000000000000000e+00
	0.000000000000000e+00
	-0.000000000000000e+00
	0.000000000000000e+00
	0.000000000000000e+00
	0.000000000000000e+00
	0.000000000000000e+00
	0.000000000000000e+00
	0.000000000000000e+00
	0.000000000000000e+00
	-0.000000000000000e+00
	0.000000000000000e+00
	0.000000000000000e+00
	0.000000000000000e+00
	0.000000000000000e+00
	0.000000000000000e+00
	0.000000000000000e+00
	0.000000000000000e+00
	0.000000000000000e+00
	0.000000000000000e+00
	0.000000000000000e+00
	0.000000000000000e+00
	0.000000000000000e+00
	0.000000000000000e+00
	0.000000000000000e+00
	-8.401265794155677e-15
	-6.294597927329507e-10
	1.290000000000000e-02
	9.000000000000000e-02

 10	9.999999999999999e-02
	0.000000000000000e+00
	0.000000000000000e+00
	-0.000000000000000e+00
	-0.000000000000000e+00
	-0.000000000000000e+00
	-0.000000000000000e+00
	-0.000000000000000e+00
	9.999999999986005e-02
	-0.000000000000000e+00
	-0.000000000000000e+00
	-0.000000000000000e+00
	0.000000000000000e+00
	0.000000000000000e+00
	0.000000000000000e+00
	0.000000000000000e+00
	0.000000000000000e+00
	0.000000000000000e+00
	0.000000000000000e+00
	-0.000000000000000e+00
	0.000000000000000e+00
	0.000000000000000e+00
	0.000000000000000e+00
	0.000000000000000e+00
	0.000000000000000e+00
	0.000000000000000e+00
	0.000000000000000e+00
	-0.000000000000000e+00
	0.000000000000000e+00
	0.000000000000000e+00
	0.000000000000000e+00
	0.000000000000000e+00
	0.000000000000000e+00
	0.000000000000000e+00
	0.000000000000000e+00
	0.000000000000000e+00
	0.000000000000000e+00
	0.000000000000000e+00
	0.000000000000000e+00
	0.000000000000000e+00
	0.000000000000000e+00
	0.000000000000000e+00
	-9.670216016832711e-15
	-8.374846263506798e-10
	1.290000000000000e-02
	9.999999999999999e-02

 11	1.100000000000000e-01
	0.000000000000000e+00
	0.000000000000000e+00
	-0.000000000000000e+00
	-0.000000000000000e+00
	-0.000000000000000e+00
	-0.000000000000000e+00
	-0.000000000000000e+00
	1.099999999998407e-01
	-0.000000000000000e+00
	-0.000000000000000e+00
	-0.000000000000000e+00
	0.000000000000000e+00
	0.000000000000000e+00
	0.000000000000000e+00
	0.000000000000000e+00
	0.000000000000000e+00
	0.000000000000000e+00
	0.000000000000000e+00
	-0.000000000000000e+00
	0.000000000000000e+00
	0.000000000000000e+00
	0.000000000000000e+00
	0.000000000000000e+00
	0.000000000000000e+00
	0.000000000000000e+00
	0.000000000000000e+00
	-0.000000000000000e+00
	0.000000000000000e+00
	0.000000000000000e+00
	0.000000000000000e+00
	0.000000000000000e+00
	0.000000000000000e+00
	0.000000000000000e+00
	0.000000000000000e+00
	0.000000000000000e+00
	0.000000000000000e+00
	0.000000000000000e+00
	0.000000000000000e+00
	0.000000000000000e+00
	0.000000000000000e+00
	0.000000000000000e+00
	-1.100421836985888e-14
	-1.114562369677901e-09
	1.290000000000000e-02
	1.100000000000000e-01

 12	1.200000000000000e-01
	0.000000000000000e+00
	0.000000000000000e+00
	-0.000000000000000e+00
	-0.000000000000000e+00
	-0.000000000000000e+00
	-0.000000000000000e+00
	-0.000000000000000e+00
	1.199999999998203e-01
	-0.000000000000000e+00
	-0.000000000000000e+00
	-0.000000000000000e+00
	0.000000000000000e+00
	0.000000000000000e+00
	0.000000000000000e+00
	0.000000000000000e+00
	0.000000000000000e+00
	0.000000000000000e+00
	0.000000000000000e+00
	-0.000000000000000e+00
	0.000000000000000e+00
	0.000000000000000e+00
	0.000000000000000e+00
	0.000000000000000e+00
	0.000000000000000e+00
	0.000000000000000e+00
	0.000000000000000e+00
	-0.000000000000000e+00
	0.000000000000000e+00
	0.000000000000000e+00
	0.000000000000000e+00
	0.000000000000000e+00
	0.000000000000000e+00
	0.000000000000000e+00
	0.000000000000000e+00
	0.000000000000000e+00
	0.000000000000000e+00
	0.000000000000000e+00
	0.000000000000000e+00
	0.000000000000000e+00
	0.000000000000000e+00
	0.000000000000000e+00
	-1.241368119409003e-14
	-1.483698293836290e-09
	1.290000000000000e-02
	1.200000000000000e-01

 13	1.300000000000000e-01
	0.000000000000000e+00
	0.000000000000000e+00
	-0.000000000000000e+00
	-0.000000000000000e+00
	-0.000000000000000e+00
	-0.000000000000000e+00
	-0.000000000000000e+00
	1.299999999997987e-01
	-0.000000000000000e+00
	-0.000000000000000e+00
	-0.000000000000000e+00
	0.000000000000000e+00
	0.000000000000000e+00
	0.000000000000000e+00
	0.000000000000000e+00
	0.000000000000000e+00
	0.000000000000000e+00
	0.000000000000000e+00
	-0.000000000000000e+00
	0.000000000000000e+00
	0.000000000000000e+00
	0.000000000000000e+00
	0.000000000000000e+00
	0.000000000000000e+00
	0.000000000000000e+00
	0.000000000000000e+00
	-0.000000000000000e+00
	0.000000000000000e+00
	0.000000000000000e+00
	0.000000000000000e+00
	0.000000000000000e+00
	0.000000000000000e+00
	0.000000000000000e+00
	0.000000000000000e+00
	0.000000000000000e+00
	0.000000000000000e+00
	0.000000000000000e+00
	0.000000000000000e+00
	0.000000000000000e+00
	0.000000000000000e+00
	0.000000000000000e+00
	-1.390727810690606e-14
	-1.975580243588477e-09
	1.290000000000000e-02
	1.300000000000000e-01

 14	1.400000000000000e-01
	0.000000000000000e+00
	0.000000000000000e+00
	-0.000000000000000e+00
	-0.000000000000000e+00
	-0.000000000000000e+00
	-0.000000000000000e+00
	-0.000000000000000e+00
	1.399999999997757e-01
	-0.000000000000000e+00
	-0.000000000000000e+00
	-0.000000000000000e+00
	0.000000000000000e+00
	0.000000000000000e+00
	0.000000000000000e+00
	0.000000000000000e+00
	0.000000000000000e+00
	0.000000000000000e+00
	0.000000000000000e+00
	-0.000000000000000e+00
	0.000000000000000e+00
	0.000000000000000e+00
	0.000000000000000e+00
	0.000000000000000e+00
	0.000000000000000e+00
	0.000000000000000e+00
	0.000000000000000e+00
	-0.000000000000000e+00
	0.000000000000000e+00
	0.000000000000000e+00
	0.000000000000000e+00
	0.000000000000000e+00
	0.000000000000000e+00
	0.000000000000000e+00
	0.000000000000000e+00
	0.000000000000000e+00
	0.000000000000000e+00
	0.000000000000000e+00
	0.000000000000000e+00
	0.000000000000000e+00
	0.000000000000000e+00
	0.000000000000000e+00
	-1.549801953437679e-14
	-2.631144067795817e-09
	1.290000000000000e-02
	1.400000000000000e-01

 15	1.500000000000000e-01
	0.000000000000000e+00
	0.000000000000000e+00
	-0.000000000000000e+00
	-0.000000000000000e+00
	-0.000000000000000e+00
	-0.000000000000000e+00
	-0.000000000000000e+00
	1.499999999997511e-01
	-0.000000000000000e+00
	-0.000000000000000e+00
	-0.000000000000000e+00
	0.000000000000000e+00
	0.000000000000000e+00
	0.000000000000000e+00
	0.000000000000000e+00
	0.000000000000000e+00
	0.000000000000000e+00
	0.000000000000000e+00
	-0.000000000000000e+00
	0.000000000000000e+00
	0.000000000000000e+00
	0.000000000000000e+00
	0.000000000000000e+00
	0.000000000000000e+00
	0.000000000000000e+00
	0.000000000000000e+00
	-0.000000000000000e+00
	0.000000000000000e+00
	0.000000000000000e+00
	0.000000000000000e+00
	0.000000000000000e+00
	0.000000000000000e+00
	0.000000000000000e+00
	0.000000000000000e+00
	0.000000000000000e+00
	0.000000000000000e+00
	0.000000000000000e+00
	0.000000000000000e+00
	0.000000000000000e+00
	0.000000000000000e+00
	0.000000000000000e+00
	-1.719978326431004e-14
	-3.504991130225624e-09
	1.290000000000000e-02
	1.500000000000000e-01

 16	1.600000000000000e-01
	0.000000000000000e+00
	0.000000000000000e+00
	-0.000000000000000e+00
	-0.000000000000000e+00
	-0.000000000000000e+00
	-0.000000000000000e+00
	-0.000000000000000e+00
	1.599999999997245e-01
	-0.000000000000000e+00
	-0.000000000000000e+00
	-0.000000000000000e+00
	0.000000000000000e+00
	0.000000000000000e+00
	0.000000000000000e+00
	0.000000000000000e+00
	0.000000000000000e+00
	0.000000000000000e+00
	0.000000000000000e+00
	-0.000000000000000e+00
	0.000000000000000e+00
	0.000000000000000e+00
	0.000000000000000e+00
	0.000000000000000e+00
	0.000000000000000e+00
	0.000000000000000e+00
	0.000000000000000e+00
	-0.000000000000000e+00
	0.000000000000000e+00
	0.000000000000000e+00
	0.000000000000000e+00
