Title: ** sch_path: /workspaces/usm-vlsi-tools/shared_xserver/parametros_vaf/sigma_test.sch
Date: Tue Aug 26 18:55:57  2025
Plotname: DC transfer characteristic
Flags: real
No. Variables: 12
No. Points: 301
Variables:
	0	v(v-sweep)	voltage
	1	i(@i0[current])	current
	2	@n1[gm_op]	admittance
	3	@n1[gmd_op]	admittance
	4	i(e1)	current
	5	v(net1)	voltage
	6	sigma	notype
	7	i(v1)	current
	8	i(v2)	current
	9	v(vd)	voltage
	10	v(vdd)	voltage
	11	v(vg)	voltage
Values:
 0	0.000000000000000e+00
	1.000000000000000e-03
	1.133031564650679e-04
	1.050178786420749e-01
	0.000000000000000e+00
	0.000000000000000e+00
	9.268751367438972e+02
	0.000000000000000e+00
	-1.000000000000000e-03
	1.016829397730087e-02
	1.200000000000000e+00
	1.016829397730087e+01

 1	1.000000000000000e-02
	1.000000000000000e-03
	1.812815942159635e-04
	6.332290808623330e-02
	0.000000000000000e+00
	1.000000000000000e-02
	3.493068800509099e+02
	0.000000000000000e+00
	-1.000000000000000e-03
	1.652505359678884e-02
	1.200000000000000e+00
	6.525053596788844e+00

 2	2.000000000000000e-02
	1.000000000000000e-03
	2.649298168268048e-04
	4.146354151574688e-02
	0.000000000000000e+00
	2.000000000000000e-02
	1.565076442220667e+02
	0.000000000000000e+00
	-1.000000000000000e-03
	2.461239544354743e-02
	1.200000000000000e+00
	4.612395443547427e+00

 3	3.000000000000000e-02
	1.000000000000000e-03
	3.541593180289773e-04
	2.959170975810566e-02
	0.000000000000000e+00
	3.000000000000000e-02
	8.355479653279788e+01
	0.000000000000000e+00
	-1.000000000000000e-03
	3.357308228640895e-02
	1.200000000000000e+00
	3.573082286408952e+00

 4	4.000000000000000e-02
	1.000000000000000e-03
	4.439477412878120e-04
	2.250493825032974e-02
	0.000000000000000e+00
	4.000000000000000e-02
	5.069276438944591e+01
	0.000000000000000e+00
	-1.000000000000000e-03
	4.295326603027523e-02
	1.200000000000000e+00
	2.953266030275224e+00

 5	5.000000000000000e-02
	1.000000000000000e-03
	5.322461555814747e-04
	1.789385687704790e-02
	0.000000000000000e+00
	5.000000000000000e-02
	3.361951362053334e+01
	0.000000000000000e+00
	-1.000000000000000e-03
	5.255106696275789e-02
	1.200000000000000e+00
	2.551066962757878e+00

 6	6.000000000000000e-02
	1.000000000000000e-03
	6.182366360317913e-04
	1.468510993711094e-02
	0.000000000000000e+00
	6.000000000000000e-02
	2.375321855943166e+01
	0.000000000000000e+00
	-1.000000000000000e-03
	6.227245223858171e-02
	1.200000000000000e+00
	2.272452238581700e+00

 7	7.000000000000001e-02
	1.000000000000000e-03
	7.016093876037967e-04
	1.233448181677620e-02
	0.000000000000000e+00
	7.000000000000001e-02
	1.758026907094573e+01
	0.000000000000000e+00
	-1.000000000000000e-03
	7.206963987506876e-02
	1.200000000000000e+00
	2.069639875068752e+00

 8	8.000000000000000e-02
	1.000000000000000e-03
	7.822772513741136e-04
	1.054257823861258e-02
	0.000000000000000e+00
	8.000000000000000e-02
	1.347677977353164e+01
	0.000000000000000e+00
	-1.000000000000000e-03
	8.191628584676947e-02
	1.200000000000000e+00
	1.916285846769473e+00

 9	9.000000000000000e-02
	1.000000000000000e-03
	8.602557186716779e-04
	9.133003339643933e-03
	0.000000000000000e+00
	9.000000000000000e-02
	1.061661450358763e+01
	0.000000000000000e+00
	-1.000000000000000e-03
	9.179683632233414e-02
	1.200000000000000e+00
	1.796836322334140e+00

 10	9.999999999999999e-02
	1.000000000000000e-03
	9.356085985621921e-04
	7.995797824712231e-03
	0.000000000000000e+00
	9.999999999999999e-02
	8.546092711204098e+00
	0.000000000000000e+00
	-1.000000000000000e-03
	1.017015762189195e-01
	1.200000000000000e+00
	1.701576218919505e+00

 11	1.100000000000000e-01
	1.000000000000000e-03
	1.008421766748191e-03
	7.059150649665181e-03
	0.000000000000000e+00
	1.100000000000000e-01
	7.000196626485444e+00
	0.000000000000000e+00
	-1.000000000000000e-03
	1.116241489020845e-01
	1.200000000000000e+00
	1.624148902084505e+00

 12	1.200000000000000e-01
	1.000000000000000e-03
	1.078789822694983e-03
	6.274310105740045e-03
	0.000000000000000e+00
	1.200000000000000e-01
	5.816063494245668e+00
	0.000000000000000e+00
	-1.000000000000000e-03
	1.215602311214902e-01
	1.200000000000000e+00
	1.560231121490189e+00

 13	1.300000000000000e-01
	1.000000000000000e-03
	1.146809058522258e-03
	5.607080751809448e-03
	0.000000000000000e+00
	1.300000000000000e-01
	4.889288857758550e+00
	0.000000000000000e+00
	-1.000000000000000e-03
	1.315067851554458e-01
	1.200000000000000e+00
	1.506785155445812e+00

 14	1.400000000000000e-01
	1.000000000000000e-03
	1.212573673843133e-03
	5.032801435277310e-03
	0.000000000000000e+00
	1.400000000000000e-01
	4.150511877209357e+00
	0.000000000000000e+00
	-1.000000000000000e-03
	1.414616164713518e-01
	1.200000000000000e+00
	1.461616471351806e+00

 15	1.500000000000000e-01
	1.000000000000000e-03
	1.276173726242559e-03
	4.533257266102631e-03
	0.000000000000000e+00
	1.500000000000000e-01
	3.552225823869536e+00
	0.000000000000000e+00
	-1.000000000000000e-03
	1.514231013449758e-01
	1.200000000000000e+00
	1.423101344975778e+00

 16	1.600000000000000e-01
	1.000000000000000e-03
	1.337694034956010e-03
	4.094713387521271e-03
	0.000000000000000e+00
	1.600000000000000e-01
	3.061023881784690e+00
	0.000000000000000e+00
	-1.000000000000000e-03
	1.613900131905867e-01
	1.200000000000000e+00
	1.390013190586738e+00

 17	1.700000000000000e-01
	1.000000000000000e-03
	1.397213614198165e-03
	3.706624381900051e-03
	0.000000000000000e+00
	1.700000000000000e-01
	2.652868784153105e+00
	0.000000000000000e+00
	-1.000000000000000e-03
	1.713614084139626e-01
	1.200000000000000e+00
	1.361408413962554e+00

 18	1.800000000000000e-01
	1.000000000000000e-03
	1.454805397648813e-03
	3.360764246396407e-03
	0.000000000000000e+00
	1.800000000000000e-01
	2.310112577137749e+00
	0.000000000000000e+00
	-1.000000000000000e-03
	1.813365493584230e-01
	1.200000000000000e+00
	1.336549358422964e+00

 19	1.900000000000000e-01
	1.000000000000000e-03
	1.510536114650844e-03
	3.050625907828801e-03
	0.000000000000000e+00
	1.900000000000000e-01
	2.019565026112563e+00
	0.000000000000000e+00
	-1.000000000000000e-03
	1.913148510472583e-01
	1.200000000000000e+00
	1.314851047258215e+00

 20	2.000000000000000e-01
	1.000000000000000e-03
	1.564466244235473e-03
	2.770998463278574e-03
	0.000000000000000e+00
	2.000000000000000e-01
	1.771210132202444e+00
	0.000000000000000e+00
	-1.000000000000000e-03
	2.012958436710010e-01
	1.200000000000000e+00
	1.295843671000902e+00

 21	2.100000000000000e-01
	1.000000000000000e-03
	1.616649925519518e-03
	2.517661443273768e-03
	0.000000000000000e+00
	2.100000000000000e-01
	1.557332483385174e+00
	0.000000000000000e+00
	-1.000000000000000e-03
	2.112791452105191e-01
	1.200000000000000e+00
	1.279145210519026e+00

 22	2.200000000000001e-01
	1.000000000000000e-03
	1.667134959092111e-03
	2.287165991378571e-03
	0.000000000000000e+00
	2.200000000000001e-01
	1.371914120632511e+00
	0.000000000000000e+00
	-1.000000000000000e-03
	2.212644421868707e-01
	1.200000000000000e+00
	1.264442186870726e+00

 23	2.300000000000001e-01
	1.000000000000000e-03
	1.715962637965392e-03
	2.076668381060468e-03
	0.000000000000000e+00
	2.300000000000001e-01
	1.210206058753565e+00
	0.000000000000000e+00
	-1.000000000000000e-03
	2.312514745822473e-01
	1.200000000000000e+00
	1.251474582247268e+00

 24	2.400000000000001e-01
	1.000000000000000e-03
	1.763167564976230e-03
	1.883807256860208e-03
	0.000000000000000e+00
	2.400000000000001e-01
	1.068422136545828e+00
	0.000000000000000e+00
	-1.000000000000000e-03
	2.412400248647188e-01
	1.200000000000000e+00
	1.240024864718720e+00

 25	2.500000000000001e-01
	1.000000000000000e-03
	1.808777362166336e-03
	1.706609999926294e-03
	0.000000000000000e+00
	2.500000000000001e-01
	9.435157889649403e-01
	0.000000000000000e+00
	-1.000000000000000e-03
	2.512299095312666e-01
	1.200000000000000e+00
	1.229909531266576e+00

 26	2.600000000000001e-01
	1.000000000000000e-03
	1.852812264161746e-03
	1.543420964469525e-03
	0.000000000000000e+00
	2.600000000000001e-01
	8.330153002132699e-01
	0.000000000000000e+00
	-1.000000000000000e-03
	2.612209725732197e-01
	1.200000000000000e+00
	1.220972573219724e+00

 27	2.700000000000001e-01
	1.000000000000000e-03
	1.895284574356347e-03
	1.392846054926747e-03
	0.000000000000000e+00
	2.700000000000001e-01
	7.349007498780324e-01
	0.000000000000000e+00
	-1.000000000000000e-03
	2.712130803696111e-01
	1.200000000000000e+00
	1.213080369611043e+00

 28	2.800000000000001e-01
	1.000000000000000e-03
	1.936197962349011e-03
	1.253709690342850e-03
	0.000000000000000e+00
	2.800000000000001e-01
	6.475111092575676e-01
	0.000000000000000e+00
	-1.000000000000000e-03
	2.812061176531864e-01
	1.200000000000000e+00
	1.206117653186369e+00

 29	2.900000000000001e-01
	1.000000000000000e-03
	1.975546582477371e-03
	1.125021291801126e-03
	0.000000000000000e+00
	2.900000000000001e-01
	5.694734316972311e-01
	0.000000000000000e+00
	-1.000000000000000e-03
	2.911999842903312e-01
	1.200000000000000e+00
	1.199984290331120e+00

 30	3.000000000000001e-01
	1.000000000000000e-03
	2.013313998936705e-03
	1.005949184840562e-03
	0.000000000000000e+00
	3.000000000000001e-01
	4.996484330669907e-01
	0.000000000000000e+00
	-1.000000000000000e-03
	3.011945926840802e-01
	1.200000000000000e+00
	1.194592684080170e+00

 31	3.100000000000001e-01
	1.000000000000000e-03
	2.049471917153879e-03
	8.958003265512629e-04
	0.000000000000000e+00
	3.100000000000001e-01
	4.370883636186971e-01
	0.000000000000000e+00
	-1.000000000000000e-03
	3.111898656578104e-01
	1.200000000000000e+00
	1.189865657810349e+00

 32	3.200000000000001e-01
	1.000000000000000e-03
	2.083978751046790e-03
	7.940046001914127e-04
	0.000000000000000e+00
	3.200000000000001e-01
	3.810041728077033e-01
	0.000000000000000e+00
	-1.000000000000000e-03
	3.211857347122936e-01
	1.200000000000000e+00
	1.185734712293478e+00

 33	3.300000000000001e-01
	1.000000000000000e-03
	2.116778113352632e-03
	7.001025907458128e-04
	0.000000000000000e+00
	3.300000000000001e-01
	3.307397153861178e-01
	0.000000000000000e+00
	-1.000000000000000e-03
	3.311821385747014e-01
	1.200000000000000e+00
	1.182138574701174e+00

 34	3.400000000000001e-01
	1.000000000000000e-03
	2.147797419467305e-03
	6.137357575310033e-04
	0.000000000000000e+00
	3.400000000000001e-01
	2.857512314560941e-01
	0.000000000000000e+00
	-1.000000000000000e-03
	3.411790219778993e-01
	1.200000000000000e+00
	1.179021977899104e+00

 35	3.500000000000001e-01
	1.000000000000000e-03
	2.176946969086095e-03
	5.346377261668763e-04
	0.000000000000000e+00
	3.500000000000001e-01
	2.455906063671008e-01
	0.000000000000000e+00
	-1.000000000000000e-03
	3.511763346242424e-01
	1.200000000000000e+00
	1.176334624242258e+00

 36	3.600000000000002e-01
	1.000000000000000e-03
	2.204120141265665e-03
	4.626249930490225e-04
	0.000000000000000e+00
	3.600000000000002e-01
	2.098910056615021e-01
	0.000000000000000e+00
	-1.000000000000000e-03
	3.611740303019992e-01
	1.200000000000000e+00
	1.174030301998972e+00

 37	3.700000000000002e-01
	1.000000000000000e-03
	2.229195717269360e-03
	3.975846622513032e-04
	0.000000000000000e+00
	3.700000000000002e-01
	1.783534120271512e-01
	0.000000000000000e+00
	-1.000000000000000e-03
	3.711720661361895e-01
	1.200000000000000e+00
	1.172066136189399e+00

 38	3.800000000000002e-01
	1.000000000000000e-03
	2.252043776029549e-03
	3.394560395964534e-04
	0.000000000000000e+00
	3.800000000000002e-01
	1.507324338938603e-01
	0.000000000000000e+00
	-1.000000000000000e-03
	3.811704019704031e-01
	1.200000000000000e+00
	1.170401970402902e+00

 39	3.900000000000002e-01
	1.000000000000000e-03
	2.272536876102582e-03
	2.882024324488750e-04
	0.000000000000000e+00
	3.900000000000002e-01
	1.268196945358899e-01
	0.000000000000000e+00
	-1.000000000000000e-03
	3.911689998924989e-01
	1.200000000000000e+00
	1.168999892498749e+00

 40	4.000000000000002e-01
	1.000000000000000e-03
	2.290567867990262e-03
	2.437703271043515e-04
	0.000000000000000e+00
	4.000000000000002e-01
	1.064235338803713e-01
	0.000000000000000e+00
	-1.000000000000000e-03
	4.011678239330664e-01
	1.200000000000000e+00
	1.167823933066193e+00

 41	4.100000000000002e-01
	1.000000000000000e-03
	2.306073965179980e-03
	2.060366910992827e-04
	0.000000000000000e+00
	4.100000000000002e-01
	8.934522231736065e-02
	0.000000000000000e+00
	-1.000000000000000e-03
	4.111668399747369e-01
	1.200000000000000e+00
	1.166839974736621e+00

 42	4.200000000000002e-01
	1.000000000000000e-03
	2.319063216478383e-03
	1.747523605692688e-04
	0.000000000000000e+00
	4.200000000000002e-01
	7.535472053005923e-02
	0.000000000000000e+00
	-1.000000000000000e-03
	4.211660159011426e-01
	1.200000000000000e+00
	1.166015901142331e+00

 43	4.300000000000002e-01
	1.000000000000000e-03
	2.329635264870574e-03
	1.494982852813035e-04
	0.000000000000000e+00
	4.300000000000002e-01
	6.417239966085810e-02
	0.000000000000000e+00
	-1.000000000000000e-03
	4.311653219740736e-01
	1.200000000000000e+00
	1.165321974073462e+00

 44	4.400000000000002e-01
	1.000000000000000e-03
	2.337986447026117e-03
	1.296751992146294e-04
	0.000000000000000e+00
	4.400000000000002e-01
	5.546447858137685e-02
	0.000000000000000e+00
	-1.000000000000000e-03
	4.411647313570761e-01
	1.200000000000000e+00
	1.164731357075870e+00

 45	4.500000000000002e-01
	1.000000000000000e-03
	2.344393420570872e-03
	1.145386338948132e-04
	0.000000000000000e+00
	4.500000000000002e-01
	4.885640476969198e-02
	0.000000000000000e+00
	-1.000000000000000e-03
	4.511642206327919e-01
	1.200000000000000e+00
	1.164220632791674e+00

 46	4.600000000000002e-01
	1.000000000000000e-03
	2.349178943387520e-03
	1.032713385694537e-04
	0.000000000000000e+00
	4.600000000000002e-01
	4.396060966753614e-02
	0.000000000000000e+00
	-1.000000000000000e-03
	4.611637701401068e-01
	1.200000000000000e+00
	1.163770140106564e+00

 47	4.700000000000003e-01
	1.000000000000000e-03
	2.352671752747307e-03
	9.506755330968818e-05
	0.000000000000000e+00
	4.700000000000003e-01
	4.040833711658844e-02
	0.000000000000000e+00
	-1.000000000000000e-03
	4.711633640150320e-01
	1.200000000000000e+00
	1.163364015031732e+00

 48	4.800000000000003e-01
	1.000000000000000e-03
	2.355173413839179e-03
	8.920163722035953e-05
	0.000000000000000e+00
	4.800000000000003e-01
	3.787476399665685e-02
	0.000000000000000e+00
	-1.000000000000000e-03
	4.811629899280475e-01
	1.200000000000000e+00
	1.162989928047203e+00

 49	4.900000000000003e-01
	1.000000000000000e-03
	2.356939023315250e-03
	8.506642730066840e-05
	0.000000000000000e+00
	4.900000000000003e-01
	3.609190838590924e-02
	0.000000000000000e+00
	-1.000000000000000e-03
	4.911626386050690e-01
	1.200000000000000e+00
	1.162638605068766e+00

 50	5.000000000000002e-01
	1.000000000000000e-03
	2.358171452377777e-03
	8.218226657668964e-05
	0.000000000000000e+00
	5.000000000000002e-01
	3.484999637911150e-02
	0.000000000000000e+00
	-1.000000000000000e-03
	5.011623032549768e-01
	1.200000000000000e+00
	1.162303254976468e+00

 51	5.100000000000002e-01
	1.000000000000000e-03
	2.359024798419127e-03
	8.018632830638052e-05
	0.000000000000000e+00
	5.100000000000002e-01
	3.399130367773855e-02
	0.000000000000000e+00
	-1.000000000000000e-03
	5.111619790078838e-01
	1.200000000000000e+00
	1.161979007883544e+00

 52	5.200000000000002e-01
	1.000000000000000e-03
	2.359612265477162e-03
	7.881277648575151e-05
	0.000000000000000e+00
	5.200000000000002e-01
	3.340073182312177e-02
	0.000000000000000e+00
	-1.000000000000000e-03
	5.211616624260685e-01
	1.200000000000000e+00
	1.161662426068280e+00

 53	5.300000000000002e-01
	1.000000000000000e-03
	2.360015055271628e-03
	7.787125355922479e-05
	0.000000000000000e+00
	5.300000000000002e-01
	3.299608338738420e-02
	0.000000000000000e+00
	-1.000000000000000e-03
	5.311613511104494e-01
	1.200000000000000e+00
	1.161351110449185e+00

 54	5.400000000000003e-01
	1.000000000000000e-03
	2.360290443556279e-03
	7.722764213045659e-05
	0.000000000000000e+00
	5.400000000000003e-01
	3.271955040164326e-02
	0.000000000000000e+00
	-1.000000000000000e-03
	5.411610434004256e-01
	1.200000000000000e+00
	1.161043400425321e+00

 55	5.500000000000003e-01
	1.000000000000000e-03
	2.360478359618782e-03
	7.678851345709184e-05
	0.000000000000000e+00
	5.500000000000003e-01
	3.253091185699038e-02
	0.000000000000000e+00
	-1.000000000000000e-03
	5.511607381531552e-01
	1.200000000000000e+00
	1.160738153154970e+00

 56	5.600000000000003e-01
	1.000000000000000e-03
	2.360606415360486e-03
	7.648929201845298e-05
	0.000000000000000e+00
	5.600000000000003e-01
	3.240239097917234e-02
	0.000000000000000e+00
	-1.000000000000000e-03
	5.611604345852671e-01
	1.200000000000000e+00
	1.160434585266753e+00

 57	5.700000000000003e-01
	1.000000000000000e-03
	2.360693598945441e-03
	7.628558541239847e-05
	0.000000000000000e+00
	5.700000000000003e-01
	3.231490331759972e-02
	0.000000000000000e+00
	-1.000000000000000e-03
	5.711601321612749e-01
	1.200000000000000e+00
	1.160132161274673e+00

 58	5.800000000000003e-01
	1.000000000000000e-03
	2.360752918444539e-03
	7.614698897427303e-05
	0.000000000000000e+00
	5.800000000000003e-01
	3.225538275494117e-02
	0.000000000000000e+00
	-1.000000000000000e-03
	5.811598305158341e-01
	1.200000000000000e+00
	1.159830515833724e+00

 59	5.900000000000003e-01
	1.000000000000000e-03
	2.360793261993349e-03
	7.605273102791811e-05
	0.000000000000000e+00
	5.900000000000003e-01
	3.221490515594854e-02
	0.000000000000000e+00
	-1.000000000000000e-03
	5.911595294000052e-01
	1.200000000000000e+00
	1.159529400004805e+00

 60	6.000000000000003e-01
	1.000000000000000e-03
	2.360820691874493e-03
	7.598864541554781e-05
	0.000000000000000e+00
	6.000000000000003e-01
	3.218738537707952e-02
	0.000000000000000e+00
	-1.000000000000000e-03
	6.011592286443166e-01
	1.200000000000000e+00
	1.159228644316267e+00

 61	6.100000000000003e-01
	1.000000000000000e-03
	2.360839337950115e-03
	7.594508227812071e-05
	0.000000000000000e+00
	6.100000000000003e-01
	3.216867876492722e-02
	0.000000000000000e+00
	-1.000000000000000e-03
	6.111589281334662e-01
	1.200000000000000e+00
	1.158928133465856e+00

 62	6.200000000000003e-01
	1.000000000000000e-03
	2.360852011323389e-03
	7.591547348886256e-05
	0.000000000000000e+00
	6.200000000000003e-01
	3.215596450973972e-02
	0.000000000000000e+00
	-1.000000000000000e-03
	6.211586277890390e-01
	1.200000000000000e+00
	1.158627789038551e+00

 63	6.300000000000003e-01
	1.000000000000000e-03
	2.360860624375069e-03
	7.589535092525033e-05
	0.000000000000000e+00
	6.300000000000003e-01
	3.214732379440662e-02
	0.000000000000000e+00
	-1.000000000000000e-03
	6.311583275577209e-01
	1.200000000000000e+00
	1.158327557720667e+00

 64	6.400000000000003e-01
	1.000000000000000e-03
	2.360866477592837e-03
	7.588167616991865e-05
	0.000000000000000e+00
	6.400000000000003e-01
	3.214145183140064e-02
	0.000000000000000e+00
	-1.000000000000000e-03
	6.411580274032719e-01
	1.200000000000000e+00
	1.158027403271622e+00

 65	6.500000000000004e-01
	1.000000000000000e-03
	2.360870455125723e-03
	7.587238355644806e-05
	0.000000000000000e+00
	6.500000000000004e-01
	3.213746158401887e-02
	0.000000000000000e+00
	-1.000000000000000e-03
	6.511577273010600e-01
	1.200000000000000e+00
	1.157727301059675e+00

 66	6.600000000000004e-01
	1.000000000000000e-03
	2.360873157964944e-03
	7.586606898351470e-05
	0.000000000000000e+00
	6.600000000000004e-01
	3.213475011461891e-02
	0.000000000000000e+00
	-1.000000000000000e-03
	6.611574272343452e-01
	1.200000000000000e+00
	1.157427234344772e+00

 67	6.700000000000004e-01
	1.000000000000000e-03
	2.360874994579157e-03
	7.586177814859109e-05
	0.000000000000000e+00
	6.700000000000004e-01
	3.213290763923483e-02
	0.000000000000000e+00
	-1.000000000000000e-03
	6.711571271917511e-01
	1.200000000000000e+00
	1.157127191750841e+00

 68	6.800000000000004e-01
	1.000000000000000e-03
	2.360876242564854e-03
	7.585886250792297e-05
	0.000000000000000e+00
	6.800000000000004e-01
	3.213165567099356e-02
	0.000000000000000e+00
	-1.000000000000000e-03
	6.811568271655476e-01
	1.200000000000000e+00
	1.156827165547339e+00

 69	6.900000000000004e-01
	1.000000000000000e-03
	2.360877090566976e-03
	7.585688133507095e-05
	0.000000000000000e+00
	6.900000000000004e-01
